
TACA8 000:076 SEGGER J-Link V6.12a Log File (0000ms, 0040ms total)
TACA8 000:076 DLL Compiled: Dec  2 2016 16:44:26 (0000ms, 0040ms total)
TACA8 000:076 Logging started @ 2018-01-23 14:20 (0000ms, 0040ms total)
TACA8 000:076 JLINK_SetWarnOutHandler(...) (0000ms, 0040ms total)
TACA8 000:076 JLINK_OpenEx(...)
Firmware: J-Link OB-SAM3U128-V2-NordicSemi compiled Nov 14 2016 16:58:29
Hardware: V1.00
S/N: 682036776WEBSRV Webserver running on local port 19080 (0031ms, 0071ms total)
TACA8 000:076   returns O.K. (0031ms, 0071ms total)
TACA8 000:107 JLINK_SetErrorOutHandler(...) (0000ms, 0071ms total)
TACA8 000:107 JLINK_ExecCommand("ProjectFile = "C:\Users\DK\Documents\Keil Development\nRF_5_SDK_11\examples\nRF52_1Gyro_i2C_wMagno\nRF52_1Gyro_i2C_wMagno\pca10040\arm5_no_packs\twi\JLinkSettings.ini"", ...). C:\Program Files (x86)\SEGGER\JLink_V612a\JLinkDevices.xml evaluated successfully.  returns 0x00 (0340ms, 0411ms total)
TACA8 000:450 JLINK_ExecCommand("Device = nRF52832_xxAA", ...). Device "NRF52832_XXAA" selected.  returns 0x00 (0003ms, 0414ms total)
TACA8 000:453 JLINK_ExecCommand("DisableConnectionTimeout", ...).   returns 0x01 (0000ms, 0414ms total)
TACA8 000:453 JLINK_GetHardwareVersion()  returns 0x2710 (0000ms, 0414ms total)
TACA8 000:453 JLINK_GetDLLVersion()  returns 61201 (0000ms, 0414ms total)
TACA8 000:453 JLINK_GetFirmwareString(...) (0000ms, 0414ms total)
TACA8 000:459 JLINK_GetDLLVersion()  returns 61201 (0000ms, 0414ms total)
TACA8 000:459 JLINK_GetCompileDateTime() (0000ms, 0414ms total)
TACA8 000:461 JLINK_GetFirmwareString(...) (0000ms, 0414ms total)
TACA8 000:463 JLINK_GetHardwareVersion()  returns 0x2710 (0000ms, 0414ms total)
TACA8 000:469 JLINK_TIF_Select(JLINKARM_TIF_SWD)  returns 0x00 (0002ms, 0416ms total)
TACA8 000:471 JLINK_SetMaxSpeed() >0x108 TIF>Found SWD-DP with ID 0x2BA01477 >0x0D TIF> >0x28 TIF> >0x0D TIF> >0x28 TIF> >0x0D TIF> >0x28 TIF> >0x0D TIF> >0x28 TIF> >0x0D TIF> >0x28 TIF> >0x0D TIF> >0x28 TIF> >0x35 TIF> >0x35 TIF> >0x0D TIF> >0x28 TIF> >0x35 TIF> >0x35 TIF> >0x108 TIF>Found SWD-DP with ID 0x2BA01477 >0x0D TIF> >0x28 TIF> >0x0D TIF> >0x28 TIF> >0x0D TIF> >0x28 TIF> >0x0D TIF> >0x28 TIF> >0x35 TIF> >0x0D TIF> >0x28 TIF> >0x0D TIF> >0x28 TIF> >0x35 TIF> >0x35 TIF> >0x35 TIF>
AP-IDR: 0x24770011, Type: AHB-AP >0x0D TIF> >0x28 TIF> >0x0D TIF> >0x28 TIF> >0x0D TIF> >0x28 TIF> >0x35 TIF> >0x35 TIF> >0x0D TIF> >0x28 TIF> >0x35 TIF> >0x35 TIF>Found Cortex-M4 r0p1, Little endian. -- CPU_ReadMem(4 bytes @ 0xE000EDF0) -- CPU_ReadMem(4 bytes @ 0xE0002000)FPUnit: 6 code (BP) slots and 2 literal slots -- CPU_ReadMem(4 bytes @ 0xE000EDFC) -- CPU_ReadMem(4 bytes @ 0xE0001000) -- CPU_WriteMem(4 bytes @ 0xE0001000) -- CPU_ReadMem(4 bytes @ 0xE000ED88) -- CPU_WriteMem(4 bytes @ 0xE000ED88)
 -- CPU_ReadMem(4 bytes @ 0xE000ED88) -- CPU_WriteMem(4 bytes @ 0xE000ED88)CoreSight components:ROMTbl 0 @ E00FF000 -- CPU_ReadMem(16 bytes @ 0xE00FF000) -- CPU_ReadMem(16 bytes @ 0xE000EFF0) -- CPU_ReadMem(16 bytes @ 0xE000EFE0)ROMTbl 0 [0]: FFF0F000, CID: B105E00D, PID: 000BB00C SCS -- CPU_ReadMem(16 bytes @ 0xE0001FF0) -- CPU_ReadMem(16 bytes @ 0xE0001FE0)ROMTbl 0 [1]: FFF02000, CID: B105E00D, PID: 003BB002 DWT -- CPU_ReadMem(16 bytes @ 0xE0002FF0) -- CPU_ReadMem(16 bytes @ 0xE0002FE0)
ROMTbl 0 [2]: FFF03000, CID: B105E00D, PID: 002BB003 FPB -- CPU_ReadMem(16 bytes @ 0xE0000FF0) -- CPU_ReadMem(16 bytes @ 0xE0000FE0)ROMTbl 0 [3]: FFF01000, CID: B105E00D, PID: 003BB001 ITM -- CPU_ReadMem(16 bytes @ 0xE00FF010) -- CPU_ReadMem(16 bytes @ 0xE0040FF0) -- CPU_ReadMem(16 bytes @ 0xE0040FE0)ROMTbl 0 [4]: FFF41000, CID: B105900D, PID: 000BB9A1 TPIU -- CPU_ReadMem(16 bytes @ 0xE0041FF0) -- CPU_ReadMem(16 bytes @ 0xE0041FE0)ROMTbl 0 [5]: FFF42000, CID: B105900D, PID: 000BB925 ETM
 (0124ms, 0540ms total)
TACA8 000:595 JLINK_GetSpeed()  returns 0x3E8 (0000ms, 0540ms total)
TACA8 000:595 JLINK_GetId() >0x35 TIF>  returns 0x2BA01477 (0000ms, 0540ms total)
TACA8 000:595 JLINK_CORE_GetFound()  returns 0xE0000FF (0000ms, 0540ms total)
TACA8 000:597 JLINK_ReadMem (0xE00FFFF0, 0x0010 Bytes, ...) -- CPU is running -- CPU_ReadMem(16 bytes @ 0xE00FFFF0) - Data: 0D 00 00 00 10 00 00 00 05 00 00 00 B1 00 00 00  returns 0x00 (0002ms, 0543ms total)
TACA8 000:599 JLINK_ReadMem (0xE00FFFD0, 0x0020 Bytes, ...) -- CPU is running -- CPU_ReadMem(32 bytes @ 0xE00FFFD0) - Data: 02 00 00 00 00 00 00 00 00 00 00 00 00 00 00 00 ...  returns 0x00 (0001ms, 0544ms total)
TACA8 000:600 JLINK_ReadMem (0xE00FF000, 0x0018 Bytes, ...) -- CPU is running -- CPU_ReadMem(24 bytes @ 0xE00FF000) - Data: 03 F0 F0 FF 03 20 F0 FF 03 30 F0 FF 03 10 F0 FF ...  returns 0x00 (0001ms, 0545ms total)
TACA8 000:601 JLINK_CORE_GetFound()  returns 0xE0000FF (0000ms, 0545ms total)
TACA8 000:601 JLINK_ReadMemU32(0xE000EF40, 0x0001 Items, ...) -- CPU is running -- CPU_ReadMem(4 bytes @ 0xE000EF40) - Data: 21 00 11 10  returns 0x01 (0001ms, 0546ms total)
TACA8 000:602 JLINK_ReadMemU32(0xE000EF44, 0x0001 Items, ...) -- CPU is running -- CPU_ReadMem(4 bytes @ 0xE000EF44) - Data: 11 00 00 11  returns 0x01 (0001ms, 0547ms total)
TACA8 000:603 JLINK_ReadMemU32(0xE000ED00, 0x0001 Items, ...) -- CPU is running -- CPU_ReadMem(4 bytes @ 0xE000ED00) - Data: 41 C2 0F 41  returns 0x01 (0001ms, 0548ms total)
TACA8 000:604 JLINK_SetResetType(JLINKARM_CM3_RESET_TYPE_NORMAL)  returns JLINKARM_CM3_RESET_TYPE_NORMAL (0000ms, 0548ms total)
TACA8 000:604 JLINK_Reset() -- CPU is running -- CPU_WriteMem(4 bytes @ 0xE000EDF0) -- CPU is running -- CPU_WriteMem(4 bytes @ 0xE000EDFC) >0x35 TIF> -- CPU is running -- CPU_WriteMem(4 bytes @ 0xE000ED0C) -- CPU is running -- CPU_ReadMem(4 bytes @ 0xE000EDF0) -- CPU is running -- CPU_ReadMem(4 bytes @ 0xE000EDF0) -- CPU is running -- CPU_WriteMem(4 bytes @ 0xE000EDF0) -- CPU is running -- CPU_WriteMem(4 bytes @ 0xE000EDFC) -- CPU is running -- CPU_ReadMem(4 bytes @ 0xE000EDF0)
 -- CPU_WriteMem(4 bytes @ 0xE0002000) -- CPU_ReadMem(4 bytes @ 0xE000EDFC) -- CPU_ReadMem(4 bytes @ 0xE0001000) (0024ms, 0572ms total)
TACA8 000:628 JLINK_Halt()  returns 0x00 (0000ms, 0572ms total)
TACA8 000:628 JLINK_IsHalted()  returns TRUE (0000ms, 0572ms total)
TACA8 000:628 JLINK_ReadMemU32(0xE000EDF0, 0x0001 Items, ...) -- CPU_ReadMem(4 bytes @ 0xE000EDF0) - Data: 03 00 03 00  returns 0x01 (0001ms, 0573ms total)
TACA8 000:629 JLINK_WriteU32(0xE000EDF0, 0xA05F0003) -- CPU_WriteMem(4 bytes @ 0xE000EDF0)  returns 0x00 (0001ms, 0574ms total)
TACA8 000:630 JLINK_WriteU32(0xE000EDFC, 0x01000000) -- CPU_WriteMem(4 bytes @ 0xE000EDFC)  returns 0x00 (0000ms, 0574ms total)
TACA8 000:638 JLINK_GetHWStatus(...)  returns 0x00 (0000ms, 0574ms total)
TACA8 000:643 JLINK_GetNumBPUnits(Type = 0xFFFFFF00)  returns 0x06 (0000ms, 0574ms total)
TACA8 000:643 JLINK_GetNumBPUnits(Type = 0xF0)  returns 0x2000 (0000ms, 0574ms total)
TACA8 000:643 JLINK_GetNumWPUnits()  returns 0x04 (0000ms, 0574ms total)
TACA8 000:648 JLINK_GetSpeed()  returns 0x3E8 (0000ms, 0574ms total)
TACA8 000:652 JLINK_ReadMemU32(0xE000E004, 0x0001 Items, ...) -- CPU_ReadMem(4 bytes @ 0xE000E004) - Data: 01 00 00 00  returns 0x01 (0000ms, 0574ms total)
TACA8 000:652 JLINK_ReadMemU32(0xE000E004, 0x0001 Items, ...) -- CPU_ReadMem(4 bytes @ 0xE000E004) - Data: 01 00 00 00  returns 0x01 (0001ms, 0575ms total)
TACA8 000:653 JLINK_WriteMem(0xE0001000, 0x001C Bytes, ...) - Data: 01 00 00 00 00 00 00 00 00 00 00 00 00 00 00 00 ... -- CPU_WriteMem(28 bytes @ 0xE0001000)  returns 0x1C (0002ms, 0577ms total)
TACA8 000:655 JLINK_ReadMem (0xE0001000, 0x001C Bytes, ...) -- CPU_ReadMem(28 bytes @ 0xE0001000) - Data: 01 00 00 40 00 00 00 00 00 00 00 00 00 00 00 00 ...  returns 0x00 (0002ms, 0579ms total)
TACA8 000:657 JLINK_Halt()  returns 0x00 (0000ms, 0579ms total)
TACA8 000:657 JLINK_IsHalted()  returns TRUE (0000ms, 0579ms total)
TACA8 000:659 JLINK_WriteMem(0x20000000, 0x0228 Bytes, ...) - Data: 00 BE 0A E0 0D 78 2D 06 68 40 08 24 40 00 00 D3 ... -- CPU_WriteMem(552 bytes @ 0x20000000)  returns 0x228 (0009ms, 0588ms total)
TACA8 000:668 JLINK_WriteReg(R0, 0x00000000)  returns 0x00 (0000ms, 0588ms total)
TACA8 000:668 JLINK_WriteReg(R1, 0x03D09000)  returns 0x00 (0000ms, 0588ms total)
TACA8 000:668 JLINK_WriteReg(R2, 0x00000001)  returns 0x00 (0000ms, 0588ms total)
TACA8 000:668 JLINK_WriteReg(R3, 0x00000000)  returns 0x00 (0000ms, 0588ms total)
TACA8 000:668 JLINK_WriteReg(R4, 0x00000000)  returns 0x00 (0000ms, 0588ms total)
TACA8 000:668 JLINK_WriteReg(R5, 0x00000000)  returns 0x00 (0000ms, 0588ms total)
TACA8 000:668 JLINK_WriteReg(R6, 0x00000000)  returns 0x00 (0000ms, 0588ms total)
TACA8 000:668 JLINK_WriteReg(R7, 0x00000000)  returns 0x00 (0000ms, 0588ms total)
TACA8 000:668 JLINK_WriteReg(R8, 0x00000000)  returns 0x00 (0000ms, 0588ms total)
TACA8 000:668 JLINK_WriteReg(R9, 0x20000224)  returns 0x00 (0000ms, 0588ms total)
TACA8 000:669 JLINK_WriteReg(R10, 0x00000000)  returns 0x00 (0000ms, 0589ms total)
TACA8 000:669 JLINK_WriteReg(R11, 0x00000000)  returns 0x00 (0000ms, 0589ms total)
TACA8 000:669 JLINK_WriteReg(R12, 0x00000000)  returns 0x00 (0000ms, 0589ms total)
TACA8 000:669 JLINK_WriteReg(R13 (SP), 0x20002000)  returns 0x00 (0000ms, 0589ms total)
TACA8 000:669 JLINK_WriteReg(R14, 0x20000001)  returns 0x00 (0000ms, 0589ms total)
TACA8 000:669 JLINK_WriteReg(R15 (PC), 0x2000003C)  returns 0x00 (0000ms, 0589ms total)
TACA8 000:669 JLINK_WriteReg(XPSR, 0x01000000)  returns 0x00 (0000ms, 0589ms total)
TACA8 000:669 JLINK_WriteReg(MSP, 0x20002000)  returns 0x00 (0000ms, 0589ms total)
TACA8 000:669 JLINK_WriteReg(PSP, 0x20002000)  returns 0x00 (0000ms, 0589ms total)
TACA8 000:669 JLINK_WriteReg(CFBP, 0x00000000)  returns 0x00 (0000ms, 0589ms total)
TACA8 000:669 JLINK_SetBPEx(Addr = 0x20000000, Type = 0xFFFFFFF2) -- CPU_ReadMem(2 bytes @ 0x20000000)  returns 0x00000001 (0001ms, 0590ms total)
TACA8 000:670 JLINK_Go() -- CPU_WriteMem(2 bytes @ 0x20000000) -- CPU_ReadMem(4 bytes @ 0xE0001000) -- CPU_WriteMem(4 bytes @ 0xE0002008) -- CPU_WriteMem(4 bytes @ 0xE000200C) -- CPU_WriteMem(4 bytes @ 0xE0002010) -- CPU_WriteMem(4 bytes @ 0xE0002014) -- CPU_WriteMem(4 bytes @ 0xE0002018) -- CPU_WriteMem(4 bytes @ 0xE000201C) -- CPU_WriteMem(4 bytes @ 0xE0001004) (0009ms, 0599ms total)
TACA8 000:679 JLINK_IsHalted() -- CPU_ReadMem(2 bytes @ 0x20000000)  returns TRUE (0007ms, 0606ms total)
TACA8 000:686 JLINK_ReadReg(R15 (PC))  returns 0x20000000 (0000ms, 0599ms total)
TACA8 000:686 JLINK_ClrBPEx(BPHandle = 0x00000001)  returns 0x00 (0000ms, 0599ms total)
TACA8 000:687 JLINK_ReadReg(R0)  returns 0x00000000 (0000ms, 0600ms total)
TACA8 000:687 JLINK_WriteReg(R0, 0x00000000)  returns 0x00 (0000ms, 0600ms total)
TACA8 000:687 JLINK_WriteReg(R1, 0x00001000)  returns 0x00 (0000ms, 0600ms total)
TACA8 000:687 JLINK_WriteReg(R2, 0x000000FF)  returns 0x00 (0000ms, 0600ms total)
TACA8 000:687 JLINK_WriteReg(R3, 0x00000000)  returns 0x00 (0000ms, 0600ms total)
TACA8 000:687 JLINK_WriteReg(R4, 0x00000000)  returns 0x00 (0000ms, 0600ms total)
TACA8 000:687 JLINK_WriteReg(R5, 0x00000000)  returns 0x00 (0000ms, 0600ms total)
TACA8 000:687 JLINK_WriteReg(R6, 0x00000000)  returns 0x00 (0000ms, 0600ms total)
TACA8 000:687 JLINK_WriteReg(R7, 0x00000000)  returns 0x00 (0000ms, 0600ms total)
TACA8 000:687 JLINK_WriteReg(R8, 0x00000000)  returns 0x00 (0000ms, 0600ms total)
TACA8 000:687 JLINK_WriteReg(R9, 0x20000224)  returns 0x00 (0000ms, 0600ms total)
TACA8 000:687 JLINK_WriteReg(R10, 0x00000000)  returns 0x00 (0000ms, 0600ms total)
TACA8 000:687 JLINK_WriteReg(R11, 0x00000000)  returns 0x00 (0000ms, 0600ms total)
TACA8 000:687 JLINK_WriteReg(R12, 0x00000000)  returns 0x00 (0001ms, 0601ms total)
TACA8 000:688 JLINK_WriteReg(R13 (SP), 0x20002000)  returns 0x00 (0000ms, 0601ms total)
TACA8 000:688 JLINK_WriteReg(R14, 0x20000001)  returns 0x00 (0000ms, 0601ms total)
TACA8 000:688 JLINK_WriteReg(R15 (PC), 0x20000110)  returns 0x00 (0000ms, 0601ms total)
TACA8 000:688 JLINK_WriteReg(XPSR, 0x01000000)  returns 0x00 (0000ms, 0601ms total)
TACA8 000:688 JLINK_WriteReg(MSP, 0x20002000)  returns 0x00 (0000ms, 0601ms total)
TACA8 000:688 JLINK_WriteReg(PSP, 0x20002000)  returns 0x00 (0000ms, 0601ms total)
TACA8 000:688 JLINK_WriteReg(CFBP, 0x00000000)  returns 0x00 (0000ms, 0601ms total)
TACA8 000:688 JLINK_SetBPEx(Addr = 0x20000000, Type = 0xFFFFFFF2)  returns 0x00000002 (0000ms, 0601ms total)
TACA8 000:688 JLINK_Go() -- CPU_ReadMem(4 bytes @ 0xE0001000) (0004ms, 0605ms total)
TACA8 000:692 JLINK_IsHalted() -- CPU_ReadMem(2 bytes @ 0x20000000)  returns TRUE (0008ms, 0613ms total)
TACA8 000:700 JLINK_ReadReg(R15 (PC))  returns 0x20000000 (0000ms, 0605ms total)
TACA8 000:700 JLINK_ClrBPEx(BPHandle = 0x00000002)  returns 0x00 (0000ms, 0605ms total)
TACA8 000:700 JLINK_ReadReg(R0)  returns 0x00000001 (0000ms, 0605ms total)
TACA8 000:700 JLINK_WriteReg(R0, 0x00000000)  returns 0x00 (0000ms, 0605ms total)
TACA8 000:700 JLINK_WriteReg(R1, 0x00001000)  returns 0x00 (0000ms, 0605ms total)
TACA8 000:700 JLINK_WriteReg(R2, 0x000000FF)  returns 0x00 (0000ms, 0605ms total)
TACA8 000:700 JLINK_WriteReg(R3, 0x00000000)  returns 0x00 (0000ms, 0605ms total)
TACA8 000:700 JLINK_WriteReg(R4, 0x00000000)  returns 0x00 (0000ms, 0605ms total)
TACA8 000:700 JLINK_WriteReg(R5, 0x00000000)  returns 0x00 (0000ms, 0605ms total)
TACA8 000:700 JLINK_WriteReg(R6, 0x00000000)  returns 0x00 (0000ms, 0605ms total)
TACA8 000:700 JLINK_WriteReg(R7, 0x00000000)  returns 0x00 (0001ms, 0606ms total)
TACA8 000:701 JLINK_WriteReg(R8, 0x00000000)  returns 0x00 (0000ms, 0606ms total)
TACA8 000:701 JLINK_WriteReg(R9, 0x20000224)  returns 0x00 (0000ms, 0606ms total)
TACA8 000:701 JLINK_WriteReg(R10, 0x00000000)  returns 0x00 (0000ms, 0606ms total)
TACA8 000:701 JLINK_WriteReg(R11, 0x00000000)  returns 0x00 (0000ms, 0606ms total)
TACA8 000:701 JLINK_WriteReg(R12, 0x00000000)  returns 0x00 (0000ms, 0606ms total)
TACA8 000:701 JLINK_WriteReg(R13 (SP), 0x20002000)  returns 0x00 (0000ms, 0606ms total)
TACA8 000:701 JLINK_WriteReg(R14, 0x20000001)  returns 0x00 (0000ms, 0606ms total)
TACA8 000:701 JLINK_WriteReg(R15 (PC), 0x200000CE)  returns 0x00 (0000ms, 0606ms total)
TACA8 000:701 JLINK_WriteReg(XPSR, 0x01000000)  returns 0x00 (0000ms, 0606ms total)
TACA8 000:701 JLINK_WriteReg(MSP, 0x20002000)  returns 0x00 (0000ms, 0606ms total)
TACA8 000:701 JLINK_WriteReg(PSP, 0x20002000)  returns 0x00 (0000ms, 0606ms total)
TACA8 000:701 JLINK_WriteReg(CFBP, 0x00000000)  returns 0x00 (0000ms, 0606ms total)
TACA8 000:701 JLINK_SetBPEx(Addr = 0x20000000, Type = 0xFFFFFFF2)  returns 0x00000003 (0000ms, 0606ms total)
TACA8 000:701 JLINK_Go() -- CPU_ReadMem(4 bytes @ 0xE0001000) (0004ms, 0610ms total)
TACA8 000:705 JLINK_IsHalted()  returns FALSE (0000ms, 0610ms total)
TACA8 000:748 JLINK_IsHalted() -- CPU_ReadMem(2 bytes @ 0x20000000)  returns TRUE (0007ms, 0617ms total)
TACA8 000:755 JLINK_ReadReg(R15 (PC))  returns 0x20000000 (0001ms, 0611ms total)
TACA8 000:756 JLINK_ClrBPEx(BPHandle = 0x00000003)  returns 0x00 (0000ms, 0611ms total)
TACA8 000:756 JLINK_ReadReg(R0)  returns 0x00000000 (0000ms, 0611ms total)
TACA8 000:756 JLINK_WriteReg(R0, 0x00001000)  returns 0x00 (0000ms, 0611ms total)
TACA8 000:756 JLINK_WriteReg(R1, 0x00001000)  returns 0x00 (0000ms, 0611ms total)
TACA8 000:756 JLINK_WriteReg(R2, 0x000000FF)  returns 0x00 (0000ms, 0611ms total)
TACA8 000:756 JLINK_WriteReg(R3, 0x00000000)  returns 0x00 (0000ms, 0611ms total)
TACA8 000:756 JLINK_WriteReg(R4, 0x00000000)  returns 0x00 (0000ms, 0611ms total)
TACA8 000:756 JLINK_WriteReg(R5, 0x00000000)  returns 0x00 (0000ms, 0611ms total)
TACA8 000:757 JLINK_WriteReg(R6, 0x00000000)  returns 0x00 (0000ms, 0611ms total)
TACA8 000:757 JLINK_WriteReg(R7, 0x00000000)  returns 0x00 (0000ms, 0611ms total)
TACA8 000:757 JLINK_WriteReg(R8, 0x00000000)  returns 0x00 (0000ms, 0611ms total)
TACA8 000:757 JLINK_WriteReg(R9, 0x20000224)  returns 0x00 (0000ms, 0611ms total)
TACA8 000:757 JLINK_WriteReg(R10, 0x00000000)  returns 0x00 (0000ms, 0611ms total)
TACA8 000:757 JLINK_WriteReg(R11, 0x00000000)  returns 0x00 (0000ms, 0611ms total)
TACA8 000:757 JLINK_WriteReg(R12, 0x00000000)  returns 0x00 (0000ms, 0611ms total)
TACA8 000:757 JLINK_WriteReg(R13 (SP), 0x20002000)  returns 0x00 (0000ms, 0611ms total)
TACA8 000:757 JLINK_WriteReg(R14, 0x20000001)  returns 0x00 (0000ms, 0611ms total)
TACA8 000:757 JLINK_WriteReg(R15 (PC), 0x20000110)  returns 0x00 (0000ms, 0611ms total)
TACA8 000:757 JLINK_WriteReg(XPSR, 0x01000000)  returns 0x00 (0000ms, 0611ms total)
TACA8 000:757 JLINK_WriteReg(MSP, 0x20002000)  returns 0x00 (0000ms, 0611ms total)
TACA8 000:757 JLINK_WriteReg(PSP, 0x20002000)  returns 0x00 (0000ms, 0611ms total)
TACA8 000:757 JLINK_WriteReg(CFBP, 0x00000000)  returns 0x00 (0000ms, 0611ms total)
TACA8 000:757 JLINK_SetBPEx(Addr = 0x20000000, Type = 0xFFFFFFF2)  returns 0x00000004 (0000ms, 0611ms total)
TACA8 000:757 JLINK_Go() -- CPU_ReadMem(4 bytes @ 0xE0001000) (0005ms, 0616ms total)
TACA8 000:762 JLINK_IsHalted() -- CPU_ReadMem(2 bytes @ 0x20000000)  returns TRUE (0007ms, 0623ms total)
TACA8 000:769 JLINK_ReadReg(R15 (PC))  returns 0x20000000 (0000ms, 0616ms total)
TACA8 000:769 JLINK_ClrBPEx(BPHandle = 0x00000004)  returns 0x00 (0000ms, 0616ms total)
TACA8 000:769 JLINK_ReadReg(R0)  returns 0x00000001 (0001ms, 0617ms total)
TACA8 000:770 JLINK_WriteReg(R0, 0x00001000)  returns 0x00 (0000ms, 0617ms total)
TACA8 000:770 JLINK_WriteReg(R1, 0x00001000)  returns 0x00 (0000ms, 0617ms total)
TACA8 000:770 JLINK_WriteReg(R2, 0x000000FF)  returns 0x00 (0000ms, 0617ms total)
TACA8 000:770 JLINK_WriteReg(R3, 0x00000000)  returns 0x00 (0000ms, 0617ms total)
TACA8 000:770 JLINK_WriteReg(R4, 0x00000000)  returns 0x00 (0000ms, 0617ms total)
TACA8 000:770 JLINK_WriteReg(R5, 0x00000000)  returns 0x00 (0000ms, 0617ms total)
TACA8 000:770 JLINK_WriteReg(R6, 0x00000000)  returns 0x00 (0000ms, 0617ms total)
TACA8 000:770 JLINK_WriteReg(R7, 0x00000000)  returns 0x00 (0000ms, 0617ms total)
TACA8 000:770 JLINK_WriteReg(R8, 0x00000000)  returns 0x00 (0000ms, 0617ms total)
TACA8 000:770 JLINK_WriteReg(R9, 0x20000224)  returns 0x00 (0000ms, 0617ms total)
TACA8 000:770 JLINK_WriteReg(R10, 0x00000000)  returns 0x00 (0000ms, 0617ms total)
TACA8 000:770 JLINK_WriteReg(R11, 0x00000000)  returns 0x00 (0000ms, 0617ms total)
TACA8 000:770 JLINK_WriteReg(R12, 0x00000000)  returns 0x00 (0000ms, 0617ms total)
TACA8 000:770 JLINK_WriteReg(R13 (SP), 0x20002000)  returns 0x00 (0000ms, 0617ms total)
TACA8 000:770 JLINK_WriteReg(R14, 0x20000001)  returns 0x00 (0000ms, 0617ms total)
TACA8 000:770 JLINK_WriteReg(R15 (PC), 0x200000CE)  returns 0x00 (0000ms, 0617ms total)
TACA8 000:770 JLINK_WriteReg(XPSR, 0x01000000)  returns 0x00 (0000ms, 0617ms total)
TACA8 000:770 JLINK_WriteReg(MSP, 0x20002000)  returns 0x00 (0000ms, 0617ms total)
TACA8 000:770 JLINK_WriteReg(PSP, 0x20002000)  returns 0x00 (0001ms, 0618ms total)
TACA8 000:771 JLINK_WriteReg(CFBP, 0x00000000)  returns 0x00 (0000ms, 0618ms total)
TACA8 000:771 JLINK_SetBPEx(Addr = 0x20000000, Type = 0xFFFFFFF2)  returns 0x00000005 (0000ms, 0618ms total)
TACA8 000:771 JLINK_Go() -- CPU_ReadMem(4 bytes @ 0xE0001000) (0003ms, 0621ms total)
TACA8 000:774 JLINK_IsHalted()  returns FALSE (0001ms, 0622ms total)
TACA8 000:792 JLINK_IsHalted() -- CPU_ReadMem(2 bytes @ 0x20000000)  returns TRUE (0007ms, 0628ms total)
TACA8 000:799 JLINK_ReadReg(R15 (PC))  returns 0x20000000 (0000ms, 0621ms total)
TACA8 000:799 JLINK_ClrBPEx(BPHandle = 0x00000005)  returns 0x00 (0000ms, 0621ms total)
TACA8 000:799 JLINK_ReadReg(R0)  returns 0x00000000 (0001ms, 0622ms total)
TACA8 000:800 JLINK_WriteReg(R0, 0x00002000)  returns 0x00 (0000ms, 0622ms total)
TACA8 000:800 JLINK_WriteReg(R1, 0x00001000)  returns 0x00 (0000ms, 0622ms total)
TACA8 000:800 JLINK_WriteReg(R2, 0x000000FF)  returns 0x00 (0000ms, 0622ms total)
TACA8 000:800 JLINK_WriteReg(R3, 0x00000000)  returns 0x00 (0000ms, 0622ms total)
TACA8 000:800 JLINK_WriteReg(R4, 0x00000000)  returns 0x00 (0000ms, 0622ms total)
TACA8 000:800 JLINK_WriteReg(R5, 0x00000000)  returns 0x00 (0000ms, 0622ms total)
TACA8 000:800 JLINK_WriteReg(R6, 0x00000000)  returns 0x00 (0000ms, 0622ms total)
TACA8 000:800 JLINK_WriteReg(R7, 0x00000000)  returns 0x00 (0000ms, 0622ms total)
TACA8 000:800 JLINK_WriteReg(R8, 0x00000000)  returns 0x00 (0000ms, 0622ms total)
TACA8 000:800 JLINK_WriteReg(R9, 0x20000224)  returns 0x00 (0000ms, 0622ms total)
TACA8 000:801 JLINK_WriteReg(R10, 0x00000000)  returns 0x00 (0000ms, 0623ms total)
TACA8 000:801 JLINK_WriteReg(R11, 0x00000000)  returns 0x00 (0000ms, 0623ms total)
TACA8 000:801 JLINK_WriteReg(R12, 0x00000000)  returns 0x00 (0000ms, 0623ms total)
TACA8 000:801 JLINK_WriteReg(R13 (SP), 0x20002000)  returns 0x00 (0000ms, 0623ms total)
TACA8 000:801 JLINK_WriteReg(R14, 0x20000001)  returns 0x00 (0000ms, 0623ms total)
TACA8 000:801 JLINK_WriteReg(R15 (PC), 0x20000110)  returns 0x00 (0000ms, 0623ms total)
TACA8 000:801 JLINK_WriteReg(XPSR, 0x01000000)  returns 0x00 (0000ms, 0623ms total)
TACA8 000:801 JLINK_WriteReg(MSP, 0x20002000)  returns 0x00 (0000ms, 0623ms total)
TACA8 000:801 JLINK_WriteReg(PSP, 0x20002000)  returns 0x00 (0000ms, 0623ms total)
TACA8 000:801 JLINK_WriteReg(CFBP, 0x00000000)  returns 0x00 (0000ms, 0623ms total)
TACA8 000:801 JLINK_SetBPEx(Addr = 0x20000000, Type = 0xFFFFFFF2)  returns 0x00000006 (0000ms, 0623ms total)
TACA8 000:801 JLINK_Go() -- CPU_ReadMem(4 bytes @ 0xE0001000) (0004ms, 0627ms total)
TACA8 000:805 JLINK_IsHalted() -- CPU_ReadMem(2 bytes @ 0x20000000)  returns TRUE (0008ms, 0635ms total)
TACA8 000:813 JLINK_ReadReg(R15 (PC))  returns 0x20000000 (0000ms, 0627ms total)
TACA8 000:813 JLINK_ClrBPEx(BPHandle = 0x00000006)  returns 0x00 (0000ms, 0627ms total)
TACA8 000:813 JLINK_ReadReg(R0)  returns 0x00000001 (0000ms, 0627ms total)
TACA8 000:813 JLINK_WriteReg(R0, 0x00002000)  returns 0x00 (0000ms, 0627ms total)
TACA8 000:813 JLINK_WriteReg(R1, 0x00001000)  returns 0x00 (0001ms, 0628ms total)
TACA8 000:814 JLINK_WriteReg(R2, 0x000000FF)  returns 0x00 (0000ms, 0628ms total)
TACA8 000:814 JLINK_WriteReg(R3, 0x00000000)  returns 0x00 (0000ms, 0628ms total)
TACA8 000:814 JLINK_WriteReg(R4, 0x00000000)  returns 0x00 (0000ms, 0628ms total)
TACA8 000:814 JLINK_WriteReg(R5, 0x00000000)  returns 0x00 (0000ms, 0628ms total)
TACA8 000:814 JLINK_WriteReg(R6, 0x00000000)  returns 0x00 (0000ms, 0628ms total)
TACA8 000:814 JLINK_WriteReg(R7, 0x00000000)  returns 0x00 (0000ms, 0628ms total)
TACA8 000:814 JLINK_WriteReg(R8, 0x00000000)  returns 0x00 (0000ms, 0628ms total)
TACA8 000:814 JLINK_WriteReg(R9, 0x20000224)  returns 0x00 (0000ms, 0628ms total)
TACA8 000:814 JLINK_WriteReg(R10, 0x00000000)  returns 0x00 (0000ms, 0628ms total)
TACA8 000:814 JLINK_WriteReg(R11, 0x00000000)  returns 0x00 (0000ms, 0628ms total)
TACA8 000:814 JLINK_WriteReg(R12, 0x00000000)  returns 0x00 (0000ms, 0628ms total)
TACA8 000:814 JLINK_WriteReg(R13 (SP), 0x20002000)  returns 0x00 (0000ms, 0628ms total)
TACA8 000:814 JLINK_WriteReg(R14, 0x20000001)  returns 0x00 (0000ms, 0628ms total)
TACA8 000:814 JLINK_WriteReg(R15 (PC), 0x200000CE)  returns 0x00 (0000ms, 0628ms total)
TACA8 000:814 JLINK_WriteReg(XPSR, 0x01000000)  returns 0x00 (0000ms, 0628ms total)
TACA8 000:814 JLINK_WriteReg(MSP, 0x20002000)  returns 0x00 (0000ms, 0628ms total)
TACA8 000:814 JLINK_WriteReg(PSP, 0x20002000)  returns 0x00 (0000ms, 0628ms total)
TACA8 000:814 JLINK_WriteReg(CFBP, 0x00000000)  returns 0x00 (0001ms, 0629ms total)
TACA8 000:815 JLINK_SetBPEx(Addr = 0x20000000, Type = 0xFFFFFFF2)  returns 0x00000007 (0000ms, 0629ms total)
TACA8 000:815 JLINK_Go() -- CPU_ReadMem(4 bytes @ 0xE0001000) (0003ms, 0632ms total)
TACA8 000:818 JLINK_IsHalted()  returns FALSE (0000ms, 0632ms total)
TACA8 000:825 JLINK_IsHalted() -- CPU_ReadMem(2 bytes @ 0x20000000)  returns TRUE (0007ms, 0639ms total)
TACA8 000:832 JLINK_ReadReg(R15 (PC))  returns 0x20000000 (0000ms, 0632ms total)
TACA8 000:832 JLINK_ClrBPEx(BPHandle = 0x00000007)  returns 0x00 (0000ms, 0632ms total)
TACA8 000:832 JLINK_ReadReg(R0)  returns 0x00000000 (0000ms, 0632ms total)
TACA8 000:833 JLINK_WriteReg(R0, 0x00003000)  returns 0x00 (0000ms, 0632ms total)
TACA8 000:833 JLINK_WriteReg(R1, 0x00001000)  returns 0x00 (0000ms, 0632ms total)
TACA8 000:833 JLINK_WriteReg(R2, 0x000000FF)  returns 0x00 (0000ms, 0632ms total)
TACA8 000:833 JLINK_WriteReg(R3, 0x00000000)  returns 0x00 (0000ms, 0632ms total)
TACA8 000:833 JLINK_WriteReg(R4, 0x00000000)  returns 0x00 (0000ms, 0632ms total)
TACA8 000:833 JLINK_WriteReg(R5, 0x00000000)  returns 0x00 (0000ms, 0632ms total)
TACA8 000:833 JLINK_WriteReg(R6, 0x00000000)  returns 0x00 (0000ms, 0632ms total)
TACA8 000:833 JLINK_WriteReg(R7, 0x00000000)  returns 0x00 (0000ms, 0632ms total)
TACA8 000:833 JLINK_WriteReg(R8, 0x00000000)  returns 0x00 (0000ms, 0632ms total)
TACA8 000:833 JLINK_WriteReg(R9, 0x20000224)  returns 0x00 (0000ms, 0632ms total)
TACA8 000:833 JLINK_WriteReg(R10, 0x00000000)  returns 0x00 (0000ms, 0632ms total)
TACA8 000:833 JLINK_WriteReg(R11, 0x00000000)  returns 0x00 (0000ms, 0632ms total)
TACA8 000:833 JLINK_WriteReg(R12, 0x00000000)  returns 0x00 (0000ms, 0632ms total)
TACA8 000:833 JLINK_WriteReg(R13 (SP), 0x20002000)  returns 0x00 (0000ms, 0632ms total)
TACA8 000:833 JLINK_WriteReg(R14, 0x20000001)  returns 0x00 (0001ms, 0633ms total)
TACA8 000:834 JLINK_WriteReg(R15 (PC), 0x20000110)  returns 0x00 (0000ms, 0633ms total)
TACA8 000:834 JLINK_WriteReg(XPSR, 0x01000000)  returns 0x00 (0000ms, 0633ms total)
TACA8 000:834 JLINK_WriteReg(MSP, 0x20002000)  returns 0x00 (0000ms, 0633ms total)
TACA8 000:834 JLINK_WriteReg(PSP, 0x20002000)  returns 0x00 (0000ms, 0633ms total)
TACA8 000:834 JLINK_WriteReg(CFBP, 0x00000000)  returns 0x00 (0000ms, 0633ms total)
TACA8 000:834 JLINK_SetBPEx(Addr = 0x20000000, Type = 0xFFFFFFF2)  returns 0x00000008 (0000ms, 0633ms total)
TACA8 000:834 JLINK_Go() -- CPU_ReadMem(4 bytes @ 0xE0001000) (0004ms, 0637ms total)
TACA8 000:838 JLINK_IsHalted() -- CPU_ReadMem(2 bytes @ 0x20000000)  returns TRUE (0026ms, 0663ms total)
TACA8 000:864 JLINK_ReadReg(R15 (PC))  returns 0x20000000 (0000ms, 0637ms total)
TACA8 000:864 JLINK_ClrBPEx(BPHandle = 0x00000008)  returns 0x00 (0000ms, 0637ms total)
TACA8 000:864 JLINK_ReadReg(R0)  returns 0x00000001 (0000ms, 0637ms total)
TACA8 000:864 JLINK_WriteReg(R0, 0x00003000)  returns 0x00 (0001ms, 0638ms total)
TACA8 000:865 JLINK_WriteReg(R1, 0x00001000)  returns 0x00 (0000ms, 0638ms total)
TACA8 000:865 JLINK_WriteReg(R2, 0x000000FF)  returns 0x00 (0000ms, 0638ms total)
TACA8 000:865 JLINK_WriteReg(R3, 0x00000000)  returns 0x00 (0000ms, 0638ms total)
TACA8 000:865 JLINK_WriteReg(R4, 0x00000000)  returns 0x00 (0000ms, 0638ms total)
TACA8 000:865 JLINK_WriteReg(R5, 0x00000000)  returns 0x00 (0000ms, 0638ms total)
TACA8 000:865 JLINK_WriteReg(R6, 0x00000000)  returns 0x00 (0000ms, 0638ms total)
TACA8 000:865 JLINK_WriteReg(R7, 0x00000000)  returns 0x00 (0000ms, 0638ms total)
TACA8 000:865 JLINK_WriteReg(R8, 0x00000000)  returns 0x00 (0000ms, 0638ms total)
TACA8 000:865 JLINK_WriteReg(R9, 0x20000224)  returns 0x00 (0000ms, 0638ms total)
TACA8 000:865 JLINK_WriteReg(R10, 0x00000000)  returns 0x00 (0000ms, 0638ms total)
TACA8 000:865 JLINK_WriteReg(R11, 0x00000000)  returns 0x00 (0000ms, 0638ms total)
TACA8 000:865 JLINK_WriteReg(R12, 0x00000000)  returns 0x00 (0000ms, 0638ms total)
TACA8 000:865 JLINK_WriteReg(R13 (SP), 0x20002000)  returns 0x00 (0000ms, 0638ms total)
TACA8 000:865 JLINK_WriteReg(R14, 0x20000001)  returns 0x00 (0000ms, 0638ms total)
TACA8 000:865 JLINK_WriteReg(R15 (PC), 0x200000CE)  returns 0x00 (0000ms, 0638ms total)
TACA8 000:865 JLINK_WriteReg(XPSR, 0x01000000)  returns 0x00 (0000ms, 0638ms total)
TACA8 000:865 JLINK_WriteReg(MSP, 0x20002000)  returns 0x00 (0000ms, 0638ms total)
TACA8 000:865 JLINK_WriteReg(PSP, 0x20002000)  returns 0x00 (0000ms, 0638ms total)
TACA8 000:865 JLINK_WriteReg(CFBP, 0x00000000)  returns 0x00 (0000ms, 0638ms total)
TACA8 000:866 JLINK_SetBPEx(Addr = 0x20000000, Type = 0xFFFFFFF2)  returns 0x00000009 (0000ms, 0639ms total)
TACA8 000:866 JLINK_Go() -- CPU_ReadMem(4 bytes @ 0xE0001000) (0003ms, 0642ms total)
TACA8 000:869 JLINK_IsHalted()  returns FALSE (0001ms, 0643ms total)
TACA8 000:887 JLINK_IsHalted() -- CPU_ReadMem(2 bytes @ 0x20000000)  returns TRUE (0007ms, 0649ms total)
TACA8 000:894 JLINK_ReadReg(R15 (PC))  returns 0x20000000 (0000ms, 0642ms total)
TACA8 000:894 JLINK_ClrBPEx(BPHandle = 0x00000009)  returns 0x00 (0000ms, 0642ms total)
TACA8 000:894 JLINK_ReadReg(R0)  returns 0x00000000 (0000ms, 0642ms total)
TACA8 000:895 JLINK_WriteReg(R0, 0x00004000)  returns 0x00 (0000ms, 0642ms total)
TACA8 000:895 JLINK_WriteReg(R1, 0x00001000)  returns 0x00 (0000ms, 0642ms total)
TACA8 000:895 JLINK_WriteReg(R2, 0x000000FF)  returns 0x00 (0000ms, 0642ms total)
TACA8 000:895 JLINK_WriteReg(R3, 0x00000000)  returns 0x00 (0000ms, 0642ms total)
TACA8 000:895 JLINK_WriteReg(R4, 0x00000000)  returns 0x00 (0000ms, 0642ms total)
TACA8 000:895 JLINK_WriteReg(R5, 0x00000000)  returns 0x00 (0000ms, 0642ms total)
TACA8 000:895 JLINK_WriteReg(R6, 0x00000000)  returns 0x00 (0000ms, 0642ms total)
TACA8 000:895 JLINK_WriteReg(R7, 0x00000000)  returns 0x00 (0000ms, 0642ms total)
TACA8 000:895 JLINK_WriteReg(R8, 0x00000000)  returns 0x00 (0000ms, 0642ms total)
TACA8 000:895 JLINK_WriteReg(R9, 0x20000224)  returns 0x00 (0000ms, 0642ms total)
TACA8 000:895 JLINK_WriteReg(R10, 0x00000000)  returns 0x00 (0000ms, 0642ms total)
TACA8 000:895 JLINK_WriteReg(R11, 0x00000000)  returns 0x00 (0000ms, 0642ms total)
TACA8 000:895 JLINK_WriteReg(R12, 0x00000000)  returns 0x00 (0001ms, 0643ms total)
TACA8 000:896 JLINK_WriteReg(R13 (SP), 0x20002000)  returns 0x00 (0000ms, 0643ms total)
TACA8 000:896 JLINK_WriteReg(R14, 0x20000001)  returns 0x00 (0000ms, 0643ms total)
TACA8 000:896 JLINK_WriteReg(R15 (PC), 0x20000110)  returns 0x00 (0000ms, 0643ms total)
TACA8 000:896 JLINK_WriteReg(XPSR, 0x01000000)  returns 0x00 (0000ms, 0643ms total)
TACA8 000:896 JLINK_WriteReg(MSP, 0x20002000)  returns 0x00 (0000ms, 0643ms total)
TACA8 000:896 JLINK_WriteReg(PSP, 0x20002000)  returns 0x00 (0000ms, 0643ms total)
TACA8 000:896 JLINK_WriteReg(CFBP, 0x00000000)  returns 0x00 (0000ms, 0643ms total)
TACA8 000:896 JLINK_SetBPEx(Addr = 0x20000000, Type = 0xFFFFFFF2)  returns 0x0000000A (0000ms, 0643ms total)
TACA8 000:896 JLINK_Go() -- CPU_ReadMem(4 bytes @ 0xE0001000) (0004ms, 0647ms total)
TACA8 000:900 JLINK_IsHalted() -- CPU_ReadMem(2 bytes @ 0x20000000)  returns TRUE (0008ms, 0655ms total)
TACA8 000:908 JLINK_ReadReg(R15 (PC))  returns 0x20000000 (0000ms, 0647ms total)
TACA8 000:908 JLINK_ClrBPEx(BPHandle = 0x0000000A)  returns 0x00 (0000ms, 0647ms total)
TACA8 000:908 JLINK_ReadReg(R0)  returns 0x00000001 (0000ms, 0647ms total)
TACA8 000:908 JLINK_WriteReg(R0, 0x00004000)  returns 0x00 (0000ms, 0647ms total)
TACA8 000:908 JLINK_WriteReg(R1, 0x00001000)  returns 0x00 (0000ms, 0647ms total)
TACA8 000:908 JLINK_WriteReg(R2, 0x000000FF)  returns 0x00 (0000ms, 0647ms total)
TACA8 000:908 JLINK_WriteReg(R3, 0x00000000)  returns 0x00 (0000ms, 0647ms total)
TACA8 000:908 JLINK_WriteReg(R4, 0x00000000)  returns 0x00 (0000ms, 0647ms total)
TACA8 000:908 JLINK_WriteReg(R5, 0x00000000)  returns 0x00 (0000ms, 0647ms total)
TACA8 000:908 JLINK_WriteReg(R6, 0x00000000)  returns 0x00 (0000ms, 0647ms total)
TACA8 000:908 JLINK_WriteReg(R7, 0x00000000)  returns 0x00 (0000ms, 0647ms total)
TACA8 000:908 JLINK_WriteReg(R8, 0x00000000)  returns 0x00 (0000ms, 0647ms total)
TACA8 000:908 JLINK_WriteReg(R9, 0x20000224)  returns 0x00 (0001ms, 0648ms total)
TACA8 000:909 JLINK_WriteReg(R10, 0x00000000)  returns 0x00 (0000ms, 0648ms total)
TACA8 000:909 JLINK_WriteReg(R11, 0x00000000)  returns 0x00 (0000ms, 0648ms total)
TACA8 000:909 JLINK_WriteReg(R12, 0x00000000)  returns 0x00 (0000ms, 0648ms total)
TACA8 000:909 JLINK_WriteReg(R13 (SP), 0x20002000)  returns 0x00 (0000ms, 0648ms total)
TACA8 000:909 JLINK_WriteReg(R14, 0x20000001)  returns 0x00 (0000ms, 0648ms total)
TACA8 000:909 JLINK_WriteReg(R15 (PC), 0x200000CE)  returns 0x00 (0000ms, 0648ms total)
TACA8 000:909 JLINK_WriteReg(XPSR, 0x01000000)  returns 0x00 (0000ms, 0648ms total)
TACA8 000:909 JLINK_WriteReg(MSP, 0x20002000)  returns 0x00 (0000ms, 0648ms total)
TACA8 000:909 JLINK_WriteReg(PSP, 0x20002000)  returns 0x00 (0000ms, 0648ms total)
TACA8 000:909 JLINK_WriteReg(CFBP, 0x00000000)  returns 0x00 (0000ms, 0648ms total)
TACA8 000:909 JLINK_SetBPEx(Addr = 0x20000000, Type = 0xFFFFFFF2)  returns 0x0000000B (0000ms, 0648ms total)
TACA8 000:909 JLINK_Go() -- CPU_ReadMem(4 bytes @ 0xE0001000) (0003ms, 0651ms total)
TACA8 000:912 JLINK_IsHalted()  returns FALSE (0001ms, 0652ms total)
TACA8 000:916 JLINK_IsHalted() -- CPU_ReadMem(2 bytes @ 0x20000000)  returns TRUE (0007ms, 0658ms total)
TACA8 000:923 JLINK_ReadReg(R15 (PC))  returns 0x20000000 (0000ms, 0651ms total)
TACA8 000:923 JLINK_ClrBPEx(BPHandle = 0x0000000B)  returns 0x00 (0000ms, 0651ms total)
TACA8 000:923 JLINK_ReadReg(R0)  returns 0x00000000 (0000ms, 0651ms total)
TACA8 000:924 JLINK_WriteReg(R0, 0x00000001)  returns 0x00 (0000ms, 0651ms total)
TACA8 000:924 JLINK_WriteReg(R1, 0x00001000)  returns 0x00 (0000ms, 0651ms total)
TACA8 000:924 JLINK_WriteReg(R2, 0x000000FF)  returns 0x00 (0000ms, 0651ms total)
TACA8 000:924 JLINK_WriteReg(R3, 0x00000000)  returns 0x00 (0000ms, 0651ms total)
TACA8 000:924 JLINK_WriteReg(R4, 0x00000000)  returns 0x00 (0000ms, 0651ms total)
TACA8 000:924 JLINK_WriteReg(R5, 0x00000000)  returns 0x00 (0000ms, 0651ms total)
TACA8 000:924 JLINK_WriteReg(R6, 0x00000000)  returns 0x00 (0000ms, 0651ms total)
TACA8 000:924 JLINK_WriteReg(R7, 0x00000000)  returns 0x00 (0000ms, 0651ms total)
TACA8 000:924 JLINK_WriteReg(R8, 0x00000000)  returns 0x00 (0000ms, 0651ms total)
TACA8 000:924 JLINK_WriteReg(R9, 0x20000224)  returns 0x00 (0000ms, 0651ms total)
TACA8 000:924 JLINK_WriteReg(R10, 0x00000000)  returns 0x00 (0000ms, 0651ms total)
TACA8 000:924 JLINK_WriteReg(R11, 0x00000000)  returns 0x00 (0000ms, 0651ms total)
TACA8 000:924 JLINK_WriteReg(R12, 0x00000000)  returns 0x00 (0000ms, 0651ms total)
TACA8 000:924 JLINK_WriteReg(R13 (SP), 0x20002000)  returns 0x00 (0000ms, 0651ms total)
TACA8 000:924 JLINK_WriteReg(R14, 0x20000001)  returns 0x00 (0000ms, 0651ms total)
TACA8 000:924 JLINK_WriteReg(R15 (PC), 0x20000084)  returns 0x00 (0001ms, 0652ms total)
TACA8 000:925 JLINK_WriteReg(XPSR, 0x01000000)  returns 0x00 (0000ms, 0652ms total)
TACA8 000:925 JLINK_WriteReg(MSP, 0x20002000)  returns 0x00 (0000ms, 0652ms total)
TACA8 000:925 JLINK_WriteReg(PSP, 0x20002000)  returns 0x00 (0000ms, 0652ms total)
TACA8 000:925 JLINK_WriteReg(CFBP, 0x00000000)  returns 0x00 (0000ms, 0652ms total)
TACA8 000:925 JLINK_SetBPEx(Addr = 0x20000000, Type = 0xFFFFFFF2)  returns 0x0000000C (0000ms, 0652ms total)
TACA8 000:925 JLINK_Go() -- CPU_ReadMem(4 bytes @ 0xE0001000) (0004ms, 0656ms total)
TACA8 000:929 JLINK_IsHalted() -- CPU_ReadMem(2 bytes @ 0x20000000)  returns TRUE (0007ms, 0663ms total)
TACA8 000:936 JLINK_ReadReg(R15 (PC))  returns 0x20000000 (0001ms, 0657ms total)
TACA8 000:937 JLINK_ClrBPEx(BPHandle = 0x0000000C)  returns 0x00 (0000ms, 0657ms total)
TACA8 000:937 JLINK_ReadReg(R0)  returns 0x00000000 (0000ms, 0657ms total)
TACA8 001:246 JLINK_WriteMem(0x20000000, 0x0228 Bytes, ...) - Data: 00 BE 0A E0 0D 78 2D 06 68 40 08 24 40 00 00 D3 ... -- CPU_WriteMem(552 bytes @ 0x20000000)  returns 0x228 (0008ms, 0665ms total)
TACA8 001:254 JLINK_WriteReg(R0, 0x00000000)  returns 0x00 (0000ms, 0665ms total)
TACA8 001:254 JLINK_WriteReg(R1, 0x03D09000)  returns 0x00 (0000ms, 0665ms total)
TACA8 001:254 JLINK_WriteReg(R2, 0x00000002)  returns 0x00 (0000ms, 0665ms total)
TACA8 001:254 JLINK_WriteReg(R3, 0x00000000)  returns 0x00 (0000ms, 0665ms total)
TACA8 001:254 JLINK_WriteReg(R4, 0x00000000)  returns 0x00 (0000ms, 0665ms total)
TACA8 001:254 JLINK_WriteReg(R5, 0x00000000)  returns 0x00 (0000ms, 0665ms total)
TACA8 001:254 JLINK_WriteReg(R6, 0x00000000)  returns 0x00 (0000ms, 0665ms total)
TACA8 001:254 JLINK_WriteReg(R7, 0x00000000)  returns 0x00 (0001ms, 0666ms total)
TACA8 001:255 JLINK_WriteReg(R8, 0x00000000)  returns 0x00 (0000ms, 0666ms total)
TACA8 001:255 JLINK_WriteReg(R9, 0x20000224)  returns 0x00 (0000ms, 0666ms total)
TACA8 001:255 JLINK_WriteReg(R10, 0x00000000)  returns 0x00 (0000ms, 0666ms total)
TACA8 001:255 JLINK_WriteReg(R11, 0x00000000)  returns 0x00 (0000ms, 0666ms total)
TACA8 001:255 JLINK_WriteReg(R12, 0x00000000)  returns 0x00 (0000ms, 0666ms total)
TACA8 001:255 JLINK_WriteReg(R13 (SP), 0x20002000)  returns 0x00 (0000ms, 0666ms total)
TACA8 001:255 JLINK_WriteReg(R14, 0x20000001)  returns 0x00 (0000ms, 0666ms total)
TACA8 001:255 JLINK_WriteReg(R15 (PC), 0x2000003C)  returns 0x00 (0000ms, 0666ms total)
TACA8 001:255 JLINK_WriteReg(XPSR, 0x01000000)  returns 0x00 (0000ms, 0666ms total)
TACA8 001:255 JLINK_WriteReg(MSP, 0x20002000)  returns 0x00 (0000ms, 0666ms total)
TACA8 001:255 JLINK_WriteReg(PSP, 0x20002000)  returns 0x00 (0000ms, 0666ms total)
TACA8 001:255 JLINK_WriteReg(CFBP, 0x00000000)  returns 0x00 (0000ms, 0666ms total)
TACA8 001:255 JLINK_SetBPEx(Addr = 0x20000000, Type = 0xFFFFFFF2) -- CPU_ReadMem(2 bytes @ 0x20000000)  returns 0x0000000D (0001ms, 0667ms total)
TACA8 001:256 JLINK_Go() -- CPU_WriteMem(2 bytes @ 0x20000000) -- CPU_ReadMem(4 bytes @ 0xE0001000) (0005ms, 0672ms total)
TACA8 001:261 JLINK_IsHalted() -- CPU_ReadMem(2 bytes @ 0x20000000)  returns TRUE (0007ms, 0679ms total)
TACA8 001:268 JLINK_ReadReg(R15 (PC))  returns 0x20000000 (0000ms, 0672ms total)
TACA8 001:268 JLINK_ClrBPEx(BPHandle = 0x0000000D)  returns 0x00 (0000ms, 0672ms total)
TACA8 001:268 JLINK_ReadReg(R0)  returns 0x00000000 (0000ms, 0672ms total)
TACA8 001:269 JLINK_WriteMem(0x20000228, 0x0DD8 Bytes, ...) - Data: 58 22 00 20 05 05 00 00 0D 05 00 00 0F 05 00 00 ... -- CPU_WriteMem(3544 bytes @ 0x20000228)  returns 0xDD8 (0048ms, 0720ms total)
TACA8 001:317 JLINK_WriteMem(0x20001000, 0x0228 Bytes, ...) - Data: 9D ED 06 0A 9D ED 07 1A DD ED 08 2A 8D ED 0C 0A ... -- CPU_WriteMem(552 bytes @ 0x20001000)  returns 0x228 (0008ms, 0728ms total)
TACA8 001:325 JLINK_WriteReg(R0, 0x00000000)  returns 0x00 (0001ms, 0729ms total)
TACA8 001:326 JLINK_WriteReg(R1, 0x00001000)  returns 0x00 (0000ms, 0729ms total)
TACA8 001:326 JLINK_WriteReg(R2, 0x20000228)  returns 0x00 (0000ms, 0729ms total)
TACA8 001:326 JLINK_WriteReg(R3, 0x00000000)  returns 0x00 (0000ms, 0729ms total)
TACA8 001:326 JLINK_WriteReg(R4, 0x00000000)  returns 0x00 (0000ms, 0729ms total)
TACA8 001:326 JLINK_WriteReg(R5, 0x00000000)  returns 0x00 (0000ms, 0729ms total)
TACA8 001:326 JLINK_WriteReg(R6, 0x00000000)  returns 0x00 (0000ms, 0729ms total)
TACA8 001:326 JLINK_WriteReg(R7, 0x00000000)  returns 0x00 (0000ms, 0729ms total)
TACA8 001:326 JLINK_WriteReg(R8, 0x00000000)  returns 0x00 (0000ms, 0729ms total)
TACA8 001:326 JLINK_WriteReg(R9, 0x20000224)  returns 0x00 (0000ms, 0729ms total)
TACA8 001:326 JLINK_WriteReg(R10, 0x00000000)  returns 0x00 (0000ms, 0729ms total)
TACA8 001:326 JLINK_WriteReg(R11, 0x00000000)  returns 0x00 (0000ms, 0729ms total)
TACA8 001:326 JLINK_WriteReg(R12, 0x00000000)  returns 0x00 (0000ms, 0729ms total)
TACA8 001:326 JLINK_WriteReg(R13 (SP), 0x20002000)  returns 0x00 (0000ms, 0729ms total)
TACA8 001:326 JLINK_WriteReg(R14, 0x20000001)  returns 0x00 (0000ms, 0729ms total)
TACA8 001:326 JLINK_WriteReg(R15 (PC), 0x2000014C)  returns 0x00 (0000ms, 0729ms total)
TACA8 001:326 JLINK_WriteReg(XPSR, 0x01000000)  returns 0x00 (0000ms, 0729ms total)
TACA8 001:326 JLINK_WriteReg(MSP, 0x20002000)  returns 0x00 (0000ms, 0729ms total)
TACA8 001:326 JLINK_WriteReg(PSP, 0x20002000)  returns 0x00 (0000ms, 0729ms total)
TACA8 001:326 JLINK_WriteReg(CFBP, 0x00000000)  returns 0x00 (0001ms, 0730ms total)
TACA8 001:327 JLINK_SetBPEx(Addr = 0x20000000, Type = 0xFFFFFFF2)  returns 0x0000000E (0000ms, 0730ms total)
TACA8 001:327 JLINK_Go() -- CPU_ReadMem(4 bytes @ 0xE0001000) (0015ms, 0745ms total)
TACA8 001:343 JLINK_IsHalted()  returns FALSE (0000ms, 0746ms total)
TACA8 001:370 JLINK_IsHalted()  returns FALSE (0000ms, 0746ms total)
TACA8 001:372 JLINK_IsHalted()  returns FALSE (0000ms, 0746ms total)
TACA8 001:373 JLINK_IsHalted()  returns FALSE (0000ms, 0746ms total)
TACA8 001:374 JLINK_IsHalted()  returns FALSE (0000ms, 0746ms total)
TACA8 001:375 JLINK_IsHalted()  returns FALSE (0000ms, 0746ms total)
TACA8 001:380 JLINK_IsHalted()  returns FALSE (0000ms, 0746ms total)
TACA8 001:381 JLINK_IsHalted()  returns FALSE (0000ms, 0746ms total)
TACA8 001:382 JLINK_IsHalted()  returns FALSE (0000ms, 0746ms total)
TACA8 001:384 JLINK_IsHalted()  returns FALSE (0000ms, 0746ms total)
TACA8 001:385 JLINK_IsHalted()  returns FALSE (0000ms, 0746ms total)
TACA8 001:386 JLINK_IsHalted()  returns FALSE (0000ms, 0746ms total)
TACA8 001:387 JLINK_IsHalted()  returns FALSE (0000ms, 0746ms total)
TACA8 001:388 JLINK_IsHalted()  returns FALSE (0000ms, 0746ms total)
TACA8 001:389 JLINK_IsHalted()  returns FALSE (0000ms, 0746ms total)
TACA8 001:390 JLINK_IsHalted()  returns FALSE (0000ms, 0746ms total)
TACA8 001:391 JLINK_IsHalted()  returns FALSE (0000ms, 0746ms total)
TACA8 001:392 JLINK_IsHalted()  returns FALSE (0000ms, 0746ms total)
TACA8 001:393 JLINK_IsHalted()  returns FALSE (0000ms, 0746ms total)
TACA8 001:394 JLINK_IsHalted()  returns FALSE (0000ms, 0746ms total)
TACA8 001:395 JLINK_IsHalted()  returns FALSE (0000ms, 0746ms total)
TACA8 001:396 JLINK_IsHalted()  returns FALSE (0000ms, 0746ms total)
TACA8 001:397 JLINK_IsHalted()  returns FALSE (0000ms, 0746ms total)
TACA8 001:398 JLINK_IsHalted()  returns FALSE (0000ms, 0746ms total)
TACA8 001:400 JLINK_IsHalted()  returns FALSE (0000ms, 0746ms total)
TACA8 001:401 JLINK_IsHalted()  returns FALSE (0000ms, 0746ms total)
TACA8 001:402 JLINK_IsHalted()  returns FALSE (0000ms, 0746ms total)
TACA8 001:403 JLINK_IsHalted()  returns FALSE (0000ms, 0746ms total)
TACA8 001:404 JLINK_IsHalted()  returns FALSE (0001ms, 0747ms total)
TACA8 001:406 JLINK_IsHalted()  returns FALSE (0000ms, 0746ms total)
TACA8 001:407 JLINK_IsHalted()  returns FALSE (0000ms, 0746ms total)
TACA8 001:408 JLINK_IsHalted()  returns FALSE (0000ms, 0746ms total)
TACA8 001:409 JLINK_IsHalted()  returns FALSE (0000ms, 0746ms total)
TACA8 001:410 JLINK_IsHalted()  returns FALSE (0000ms, 0746ms total)
TACA8 001:411 JLINK_IsHalted()  returns FALSE (0000ms, 0746ms total)
TACA8 001:419 JLINK_IsHalted() -- CPU_ReadMem(2 bytes @ 0x20000000)  returns TRUE (0016ms, 0762ms total)
TACA8 001:435 JLINK_ReadReg(R15 (PC))  returns 0x20000000 (0000ms, 0746ms total)
TACA8 001:435 JLINK_ClrBPEx(BPHandle = 0x0000000E)  returns 0x00 (0000ms, 0746ms total)
TACA8 001:435 JLINK_ReadReg(R0)  returns 0x00000000 (0000ms, 0746ms total)
TACA8 001:435 JLINK_WriteMem(0x20000228, 0x0DD8 Bytes, ...) - Data: 16 31 D0 E9 05 24 D0 E9 03 31 CD E9 11 24 CD E9 ... -- CPU_WriteMem(3544 bytes @ 0x20000228)  returns 0xDD8 (0048ms, 0794ms total)
TACA8 001:484 JLINK_WriteMem(0x20001000, 0x0228 Bytes, ...) - Data: 00 00 C9 3F 22 AA FD 39 00 00 00 00 24 FE 1C 3D ... -- CPU_WriteMem(552 bytes @ 0x20001000)  returns 0x228 (0008ms, 0802ms total)
TACA8 001:492 JLINK_WriteReg(R0, 0x00001000)  returns 0x00 (0000ms, 0802ms total)
TACA8 001:492 JLINK_WriteReg(R1, 0x00001000)  returns 0x00 (0000ms, 0802ms total)
TACA8 001:492 JLINK_WriteReg(R2, 0x20000228)  returns 0x00 (0000ms, 0802ms total)
TACA8 001:492 JLINK_WriteReg(R3, 0x00000000)  returns 0x00 (0000ms, 0802ms total)
TACA8 001:492 JLINK_WriteReg(R4, 0x00000000)  returns 0x00 (0000ms, 0802ms total)
TACA8 001:492 JLINK_WriteReg(R5, 0x00000000)  returns 0x00 (0000ms, 0802ms total)
TACA8 001:492 JLINK_WriteReg(R6, 0x00000000)  returns 0x00 (0000ms, 0802ms total)
TACA8 001:492 JLINK_WriteReg(R7, 0x00000000)  returns 0x00 (0000ms, 0802ms total)
TACA8 001:492 JLINK_WriteReg(R8, 0x00000000)  returns 0x00 (0000ms, 0802ms total)
TACA8 001:492 JLINK_WriteReg(R9, 0x20000224)  returns 0x00 (0000ms, 0802ms total)
TACA8 001:492 JLINK_WriteReg(R10, 0x00000000)  returns 0x00 (0000ms, 0802ms total)
TACA8 001:492 JLINK_WriteReg(R11, 0x00000000)  returns 0x00 (0000ms, 0802ms total)
TACA8 001:492 JLINK_WriteReg(R12, 0x00000000)  returns 0x00 (0000ms, 0802ms total)
TACA8 001:492 JLINK_WriteReg(R13 (SP), 0x20002000)  returns 0x00 (0001ms, 0803ms total)
TACA8 001:493 JLINK_WriteReg(R14, 0x20000001)  returns 0x00 (0000ms, 0803ms total)
TACA8 001:493 JLINK_WriteReg(R15 (PC), 0x2000014C)  returns 0x00 (0000ms, 0803ms total)
TACA8 001:493 JLINK_WriteReg(XPSR, 0x01000000)  returns 0x00 (0000ms, 0803ms total)
TACA8 001:493 JLINK_WriteReg(MSP, 0x20002000)  returns 0x00 (0000ms, 0803ms total)
TACA8 001:493 JLINK_WriteReg(PSP, 0x20002000)  returns 0x00 (0000ms, 0803ms total)
TACA8 001:493 JLINK_WriteReg(CFBP, 0x00000000)  returns 0x00 (0000ms, 0803ms total)
TACA8 001:493 JLINK_SetBPEx(Addr = 0x20000000, Type = 0xFFFFFFF2)  returns 0x0000000F (0000ms, 0803ms total)
TACA8 001:493 JLINK_Go() -- CPU_ReadMem(4 bytes @ 0xE0001000) (0004ms, 0807ms total)
TACA8 001:497 JLINK_IsHalted()  returns FALSE (0001ms, 0808ms total)
TACA8 001:513 JLINK_IsHalted()  returns FALSE (0000ms, 0807ms total)
TACA8 001:514 JLINK_IsHalted()  returns FALSE (0000ms, 0807ms total)
TACA8 001:515 JLINK_IsHalted()  returns FALSE (0000ms, 0807ms total)
TACA8 001:516 JLINK_IsHalted()  returns FALSE (0000ms, 0807ms total)
TACA8 001:517 JLINK_IsHalted()  returns FALSE (0000ms, 0807ms total)
TACA8 001:518 JLINK_IsHalted()  returns FALSE (0000ms, 0807ms total)
TACA8 001:526 JLINK_IsHalted()  returns FALSE (0000ms, 0807ms total)
TACA8 001:527 JLINK_IsHalted()  returns FALSE (0000ms, 0807ms total)
TACA8 001:528 JLINK_IsHalted()  returns FALSE (0000ms, 0807ms total)
TACA8 001:529 JLINK_IsHalted()  returns FALSE (0001ms, 0808ms total)
TACA8 001:531 JLINK_IsHalted()  returns FALSE (0001ms, 0808ms total)
TACA8 001:533 JLINK_IsHalted()  returns FALSE (0000ms, 0807ms total)
TACA8 001:543 JLINK_IsHalted()  returns FALSE (0000ms, 0807ms total)
TACA8 001:544 JLINK_IsHalted()  returns FALSE (0000ms, 0807ms total)
TACA8 001:545 JLINK_IsHalted()  returns FALSE (0000ms, 0807ms total)
TACA8 001:546 JLINK_IsHalted()  returns FALSE (0000ms, 0807ms total)
TACA8 001:547 JLINK_IsHalted()  returns FALSE (0000ms, 0807ms total)
TACA8 001:548 JLINK_IsHalted()  returns FALSE (0000ms, 0807ms total)
TACA8 001:549 JLINK_IsHalted()  returns FALSE (0000ms, 0807ms total)
TACA8 001:550 JLINK_IsHalted()  returns FALSE (0000ms, 0807ms total)
TACA8 001:551 JLINK_IsHalted()  returns FALSE (0000ms, 0807ms total)
TACA8 001:552 JLINK_IsHalted()  returns FALSE (0000ms, 0807ms total)
TACA8 001:553 JLINK_IsHalted()  returns FALSE (0000ms, 0807ms total)
TACA8 001:554 JLINK_IsHalted()  returns FALSE (0000ms, 0807ms total)
TACA8 001:555 JLINK_IsHalted()  returns FALSE (0000ms, 0807ms total)
TACA8 001:556 JLINK_IsHalted()  returns FALSE (0000ms, 0807ms total)
TACA8 001:557 JLINK_IsHalted()  returns FALSE (0000ms, 0807ms total)
TACA8 001:558 JLINK_IsHalted()  returns FALSE (0000ms, 0807ms total)
TACA8 001:559 JLINK_IsHalted()  returns FALSE (0000ms, 0807ms total)
TACA8 001:561 JLINK_IsHalted()  returns FALSE (0000ms, 0807ms total)
TACA8 001:562 JLINK_IsHalted()  returns FALSE (0000ms, 0807ms total)
TACA8 001:563 JLINK_IsHalted()  returns FALSE (0000ms, 0807ms total)
TACA8 001:564 JLINK_IsHalted()  returns FALSE (0000ms, 0807ms total)
TACA8 001:567 JLINK_IsHalted() -- CPU_ReadMem(2 bytes @ 0x20000000)  returns TRUE (0007ms, 0814ms total)
TACA8 001:574 JLINK_ReadReg(R15 (PC))  returns 0x20000000 (0000ms, 0807ms total)
TACA8 001:574 JLINK_ClrBPEx(BPHandle = 0x0000000F)  returns 0x00 (0000ms, 0807ms total)
TACA8 001:574 JLINK_ReadReg(R0)  returns 0x00000000 (0000ms, 0807ms total)
TACA8 001:575 JLINK_WriteMem(0x20000228, 0x0DD8 Bytes, ...) - Data: 00 00 C9 BF 22 AA FD B9 00 00 C9 3F 22 AA FD 39 ... -- CPU_WriteMem(3544 bytes @ 0x20000228)  returns 0xDD8 (0048ms, 0855ms total)
TACA8 001:623 JLINK_WriteMem(0x20001000, 0x0228 Bytes, ...) - Data: 20 EE 20 0A B0 EE 40 9A 9D ED 09 0A DD ED 0C 0A ... -- CPU_WriteMem(552 bytes @ 0x20001000)  returns 0x228 (0008ms, 0863ms total)
TACA8 001:631 JLINK_WriteReg(R0, 0x00002000)  returns 0x00 (0000ms, 0863ms total)
TACA8 001:631 JLINK_WriteReg(R1, 0x00001000)  returns 0x00 (0000ms, 0863ms total)
TACA8 001:631 JLINK_WriteReg(R2, 0x20000228)  returns 0x00 (0000ms, 0863ms total)
TACA8 001:631 JLINK_WriteReg(R3, 0x00000000)  returns 0x00 (0000ms, 0863ms total)
TACA8 001:631 JLINK_WriteReg(R4, 0x00000000)  returns 0x00 (0000ms, 0863ms total)
TACA8 001:631 JLINK_WriteReg(R5, 0x00000000)  returns 0x00 (0000ms, 0863ms total)
TACA8 001:631 JLINK_WriteReg(R6, 0x00000000)  returns 0x00 (0000ms, 0863ms total)
TACA8 001:632 JLINK_WriteReg(R7, 0x00000000)  returns 0x00 (0000ms, 0864ms total)
TACA8 001:632 JLINK_WriteReg(R8, 0x00000000)  returns 0x00 (0000ms, 0864ms total)
TACA8 001:632 JLINK_WriteReg(R9, 0x20000224)  returns 0x00 (0000ms, 0864ms total)
TACA8 001:632 JLINK_WriteReg(R10, 0x00000000)  returns 0x00 (0000ms, 0864ms total)
TACA8 001:632 JLINK_WriteReg(R11, 0x00000000)  returns 0x00 (0000ms, 0864ms total)
TACA8 001:632 JLINK_WriteReg(R12, 0x00000000)  returns 0x00 (0000ms, 0864ms total)
TACA8 001:632 JLINK_WriteReg(R13 (SP), 0x20002000)  returns 0x00 (0000ms, 0864ms total)
TACA8 001:632 JLINK_WriteReg(R14, 0x20000001)  returns 0x00 (0000ms, 0864ms total)
TACA8 001:632 JLINK_WriteReg(R15 (PC), 0x2000014C)  returns 0x00 (0000ms, 0864ms total)
TACA8 001:632 JLINK_WriteReg(XPSR, 0x01000000)  returns 0x00 (0000ms, 0864ms total)
TACA8 001:632 JLINK_WriteReg(MSP, 0x20002000)  returns 0x00 (0000ms, 0864ms total)
TACA8 001:632 JLINK_WriteReg(PSP, 0x20002000)  returns 0x00 (0000ms, 0864ms total)
TACA8 001:632 JLINK_WriteReg(CFBP, 0x00000000)  returns 0x00 (0000ms, 0864ms total)
TACA8 001:632 JLINK_SetBPEx(Addr = 0x20000000, Type = 0xFFFFFFF2)  returns 0x00000010 (0000ms, 0864ms total)
TACA8 001:632 JLINK_Go() -- CPU_ReadMem(4 bytes @ 0xE0001000) (0005ms, 0869ms total)
TACA8 001:658 JLINK_IsHalted()  returns FALSE (0001ms, 0891ms total)
TACA8 001:684 JLINK_IsHalted()  returns FALSE (0000ms, 0890ms total)
TACA8 001:685 JLINK_IsHalted()  returns FALSE (0000ms, 0890ms total)
